Time (s),Vin (V),Vout (V)
0.0041375,-0.000938387,-0.616627264
0.00415,-0.015633409,-1.024455476
0.0041625,-0.030328431,-1.469024968
0.004175,-0.045023454,-1.950335741
0.0041875,-0.063392232,-2.442668898
0.0042,-0.081761009,-2.927653798
0.0042125,-0.096456032,-3.331807882
0.004225,-0.111151054,-3.493469516
0.0042375,-0.125846076,-3.537559052
0.00425,-0.140541099,-3.570626204
0.0042625,-0.155236121,-3.600019229
0.004275,-0.169931143,-3.633086381
0.0042875,-0.188299921,-3.662479405
0.0043,-0.202994943,-3.691872429
0.0043125,-0.217689966,-3.72861371
0.004325,-0.232384988,-3.76535499
0.0043375,-0.24708001,-3.9894768
0.00435,-0.269122544,-4.456091061
0.0043625,-0.28014381,-4.577337286
0.004375,-0.298512588,-4.60673031
0.0043875,-0.31320761,-4.62510095
0.0044,-0.327902633,-4.639797462
0.0044125,-0.346271411,-4.654493975
0.004425,-0.360966433,-4.665516359
0.0044375,-0.3719877,-4.683886999
0.00445,-0.386682722,-4.694909383
0.0044625,-0.4050515,-4.709605895
0.004475,-0.419746522,-4.724302407
0.0044875,-0.434441544,-4.731650663
0.0045,-0.452810322,-4.746347175
0.0045125,-0.467505345,-4.75736956
0.004525,-0.482200367,-4.772066072
0.0045375,-0.500569145,-4.779414328
0.00455,-0.515264167,-4.790436712
0.0045625,-0.529959189,-4.797784968
0.004575,-0.544654212,-4.808807352
0.0045875,-0.559349234,-4.816155608
0.0046,-0.574044256,-4.827177992
0.0046125,-0.588739278,-4.834526248
0.004625,-0.603434301,-4.845548632
0.0046375,-0.618129323,-4.852896888
0.00465,-0.632824345,-4.860245145
0.0046625,-0.651193123,-4.867593401
0.004675,-0.66221439,-4.874941657
0.0046875,-0.676909412,-4.882289913
0.0047,-0.691604434,-4.885964041
0.0047125,-0.706299457,-4.893312297
0.004725,-0.720994479,-4.900660553
0.0047375,-0.735689501,-4.904334681
0.00475,-0.750384524,-4.911682937
0.0047625,-0.768753301,-4.915357065
0.004775,-0.783448324,-4.919031193
0.0047875,-0.79446959,-4.926379449
0.0048,-0.809164613,-4.930053577
0.0048125,-0.823859635,-4.933727705
0.004825,-0.834880902,-4.937401833
0.0048375,-0.85324968,-4.944750089
0.00485,-0.864270946,-4.944750089
0.0048625,-0.878965969,-4.948424217
0.004875,-0.893660991,-4.952098345
0.0048875,-0.908356013,-4.955772473
0.0049,-0.923051035,-4.959446602
0.0049125,-0.934072302,-4.96312073
0.004925,-0.945093569,-4.959446602
0.0049375,-0.963462347,-4.966794858
0.00495,-0.978157369,-4.966794858
0.0049625,-0.989178636,-4.970468986
0.004975,-1.003873658,-4.966794858
0.0049875,-1.022242436,-4.970468986
0.005,-1.029589947,-4.966794858
0.0050125,-1.044284969,-4.970468986
0.005025,-1.055306236,-4.970468986
0.0050375,-1.070001258,-4.974143114
0.00505,-1.081022525,-4.974143114
0.0050625,-1.099391303,-4.974143114
0.005075,-1.106738814,-4.970468986
0.0050875,-1.121433836,-4.974143114
0.0051,-1.136128859,-4.974143114
0.0051125,-1.147150125,-4.970468986
0.005125,-1.161845148,-4.974143114
0.0051375,-1.172866414,-4.974143114
0.00515,-1.187561437,-4.974143114
0.0051625,-1.198582703,-4.974143114
0.005175,-1.213277726,-4.974143114
0.0051875,-1.224298992,-4.977817242
0.0052,-1.238994015,-4.974143114
0.0052125,-1.250015281,-4.974143114
0.005225,-1.264710304,-4.977817242
0.0052375,-1.272057815,-4.974143114
0.00525,-1.286752837,-4.974143114
0.0052625,-1.297774104,-4.974143114
0.005275,-1.30879537,-4.974143114
0.0052875,-1.319816637,-4.974143114
0.0053,-1.330837904,-4.974143114
0.0053125,-1.345532926,-4.977817242
0.005325,-1.356554193,-4.974143114
0.0053375,-1.36757546,-4.974143114
0.00535,-1.378596726,-4.974143114
0.0053625,-1.389617993,-4.974143114
0.005375,-1.40063926,-4.974143114
0.0053875,-1.411660526,-4.974143114
0.0054,-1.422681793,-4.974143114
0.0054125,-1.43370306,-4.974143114
0.005425,-1.444724327,-4.974143114
0.0054375,-1.455745593,-4.970468986
0.00545,-1.463093104,-4.974143114
0.0054625,-1.477788127,-4.974143114
0.005475,-1.488809393,-4.974143114
0.0054875,-1.49983066,-4.974143114
0.0055,-1.507178171,-4.970468986
0.0055125,-1.518199438,-4.974143114
0.005525,-1.525546949,-4.974143114
0.0055375,-1.536568216,-4.974143114
0.00555,-1.547589483,-4.974143114
0.0055625,-1.558610749,-4.977817242
0.005575,-1.56595826,-4.974143114
0.0055875,-1.576979527,-4.974143114
0.0056,-1.584327038,-4.974143114
0.0056125,-1.595348305,-4.974143114
0.005625,-1.602695816,-4.974143114
0.0056375,-1.613717083,-4.977817242
0.00565,-1.62473835,-4.974143114
0.0056625,-1.632085861,-4.974143114
0.005675,-1.643107127,-4.974143114
0.0056875,-1.650454639,-4.974143114
0.0057,-1.65780215,-4.974143114
0.0057125,-1.668823416,-4.974143114
0.005725,-1.676170928,-4.974143114
0.0057375,-1.683518439,-4.974143114
0.00575,-1.69086595,-4.974143114
0.0057625,-1.701887217,-4.977817242
0.005775,-1.712908483,-4.974143114
0.0057875,-1.716582239,-4.974143114
0.0058,-1.72392975,-4.974143114
0.0058125,-1.734951017,-4.974143114
0.005825,-1.742298528,-4.974143114
0.0058375,-1.749646039,-4.974143114
0.00585,-1.75699355,-4.974143114
0.0058625,-1.764341061,-4.974143114
0.005875,-1.768014817,-4.974143114
0.0058875,-1.779036084,-4.974143114
0.0059,-1.782709839,-4.974143114
0.0059125,-1.79005735,-4.974143114
0.005925,-1.797404861,-4.974143114
0.0059375,-1.804752373,-4.974143114
0.00595,-1.808426128,-4.974143114
0.0059625,-1.815773639,-4.974143114
0.005975,-1.82312115,-4.974143114
0.0059875,-1.830468662,-4.977817242
0.006,-1.837816173,-4.974143114
0.0060125,-1.845163684,-4.974143114
0.006025,-1.848837439,-4.974143114
0.0060375,-1.856184951,-4.974143114
0.00605,-1.859858706,-4.974143114
0.0060625,-1.863532462,-4.974143114
0.006075,-1.870879973,-4.974143114
0.0060875,-1.874553728,-4.974143114
0.0061,-1.88190124,-4.977817242
0.0061125,-1.885574995,-4.974143114
0.006125,-1.889248751,-4.974143114
0.0061375,-1.896596262,-4.974143114
0.00615,-1.900270017,-4.974143114
0.0061625,-1.903943773,-4.974143114
0.006175,-1.911291284,-4.974143114
0.0061875,-1.91496504,-4.974143114
0.0062,-1.918638795,-4.974143114
0.0062125,-1.925986306,-4.974143114
0.006225,-1.929660062,-4.974143114
0.0062375,-1.929660062,-4.974143114
0.00625,-1.933333818,-4.977817242
0.0062625,-1.937007573,-4.974143114
0.006275,-1.944355084,-4.977817242
0.0062875,-1.944355084,-4.977817242
0.0063,-1.94802884,-4.974143114
0.0063125,-1.951702595,-4.974143114
0.006325,-1.955376351,-4.974143114
0.0063375,-1.959050107,-4.974143114
0.00635,-1.959050107,-4.974143114
0.0063625,-1.962723862,-4.977817242
0.006375,-1.966397618,-4.974143114
0.0063875,-1.970071373,-4.974143114
0.0064,-1.973745129,-4.974143114
0.0064125,-1.973745129,-4.974143114
0.006425,-1.973745129,-4.974143114
0.0064375,-1.98109264,-4.974143114
0.00645,-1.977418884,-4.974143114
0.0064625,-1.98109264,-4.974143114
0.006475,-1.98109264,-4.974143114
0.0064875,-1.984766396,-4.977817242
0.0065,-1.984766396,-4.974143114
0.0065125,-1.984766396,-4.974143114
0.006525,-1.988440151,-4.974143114
0.0065375,-1.988440151,-4.974143114
0.00655,-1.988440151,-4.974143114
0.0065625,-1.992113907,-4.977817242
0.006575,-1.988440151,-4.974143114
0.0065875,-1.992113907,-4.974143114
0.0066,-1.988440151,-4.974143114
0.0066125,-1.992113907,-4.974143114
0.006625,-1.988440151,-4.974143114
0.0066375,-1.992113907,-4.974143114
0.00665,-1.988440151,-4.974143114
0.0066625,-1.988440151,-4.977817242
0.006675,-1.988440151,-4.977817242
0.0066875,-1.988440151,-4.974143114
0.0067,-1.992113907,-4.977817242
0.0067125,-1.984766396,-4.977817242
0.006725,-1.988440151,-4.974143114
0.0067375,-1.984766396,-4.974143114
0.00675,-1.984766396,-4.974143114
0.0067625,-1.984766396,-4.974143114
0.006775,-1.984766396,-4.974143114
0.0067875,-1.98109264,-4.974143114
0.0068,-1.98109264,-4.974143114
0.0068125,-1.977418884,-4.974143114
0.006825,-1.973745129,-4.974143114
0.0068375,-1.977418884,-4.974143114
0.00685,-1.970071373,-4.974143114
0.0068625,-1.970071373,-4.974143114
0.006875,-1.966397618,-4.974143114
0.0068875,-1.966397618,-4.977817242
0.0069,-1.962723862,-4.977817242
0.0069125,-1.959050107,-4.974143114
0.006925,-1.959050107,-4.974143114
0.0069375,-1.955376351,-4.977817242
0.00695,-1.951702595,-4.974143114
0.0069625,-1.94802884,-4.974143114
0.006975,-1.944355084,-4.974143114
0.0069875,-1.937007573,-4.974143114
0.007,-1.937007573,-4.974143114
0.0070125,-1.933333818,-4.977817242
0.007025,-1.929660062,-4.974143114
0.0070375,-1.922312551,-4.974143114
0.00705,-1.922312551,-4.974143114
0.0070625,-1.91496504,-4.974143114
0.007075,-1.91496504,-4.974143114
0.0070875,-1.907617529,-4.974143114
0.0071,-1.903943773,-4.974143114
0.0071125,-1.900270017,-4.974143114
0.007125,-1.892922506,-4.974143114
0.0071375,-1.889248751,-4.974143114
0.00715,-1.88190124,-4.974143114
0.0071625,-1.878227484,-4.974143114
0.007175,-1.878227484,-4.977817242
0.0071875,-1.867206217,-4.974143114
0.0072,-1.863532462,-4.974143114
0.0072125,-1.856184951,-4.974143114
0.007225,-1.852511195,-4.974143114
0.0072375,-1.845163684,-4.974143114
0.00725,-1.837816173,-4.974143114
0.0072625,-1.834142417,-4.974143114
0.007275,-1.826794906,-4.970468986
0.0072875,-1.82312115,-4.974143114
0.0073,-1.815773639,-4.974143114
0.0073125,-1.808426128,-4.974143114
0.007325,-1.801078617,-4.974143114
0.0073375,-1.793731106,-4.974143114
0.00735,-1.786383595,-4.974143114
0.0073625,-1.779036084,-4.974143114
0.007375,-1.771688572,-4.974143114
0.0073875,-1.768014817,-4.977817242
0.0074,-1.760667306,-4.974143114
0.0074125,-1.753319795,-4.974143114
0.007425,-1.742298528,-4.974143114
0.0074375,-1.738624772,-4.977817242
0.00745,-1.731277261,-4.977817242
0.0074625,-1.720255994,-4.974143114
0.007475,-1.712908483,-4.974143114
0.0074875,-1.709234728,-4.974143114
0.0075,-1.698213461,-4.974143114
0.0075125,-1.69086595,-4.974143114
0.007525,-1.683518439,-4.974143114
0.0075375,-1.672497172,-4.974143114
0.00755,-1.665149661,-4.974143114
0.0075625,-1.65780215,-4.974143114
0.007575,-1.646780883,-4.974143114
0.0075875,-1.639433372,-4.974143114
0.0076,-1.628412105,-4.974143114
0.0076125,-1.621064594,-4.974143114
0.007625,-1.613717083,-4.974143114
0.0076375,-1.599022061,-4.974143114
0.00765,-1.591674549,-4.974143114
0.0076625,-1.580653283,-4.974143114
0.007675,-1.573305772,-4.974143114
0.0076875,-1.562284505,-4.974143114
0.0077,-1.551263238,-4.974143114
0.0077125,-1.543915727,-4.974143114
0.007725,-1.529220705,-4.974143114
0.0077375,-1.521873194,-4.974143114
0.00775,-1.514525682,-4.974143114
0.0077625,-1.503504416,-4.974143114
0.007775,-1.492483149,-4.974143114
0.0077875,-1.485135638,-4.974143114
0.0078,-1.474114371,-4.970468986
0.0078125,-1.463093104,-4.974143114
0.007825,-1.452071838,-4.974143114
0.0078375,-1.441050571,-4.974143114
0.00785,-1.430029304,-4.974143114
0.0078625,-1.419008038,-4.974143114
0.007875,-1.407986771,-4.977817242
0.0078875,-1.396965504,-4.977817242
0.0079,-1.385944237,-4.974143114
0.0079125,-1.374922971,-4.977817242
0.007925,-1.360227948,-4.974143114
0.0079375,-1.352880437,-4.974143114
0.00795,-1.341859171,-4.974143114
0.0079625,-1.327164148,-4.977817242
0.007975,-1.319816637,-4.974143114
0.0079875,-1.305121615,-4.974143114
0.008,-1.294100348,-4.974143114
0.0080125,-1.283079081,-4.974143114
0.008025,-1.272057815,-4.974143114
0.0080375,-1.261036548,-4.974143114
0.00805,-1.24266777,-4.974143114
0.0080625,-1.235320259,-4.974143114
0.008075,-1.220625237,-4.977817242
0.0080875,-1.20960397,-4.977817242
0.0081,-1.194908948,-4.974143114
0.0081125,-1.183887681,-4.977817242
0.008125,-1.169192659,-4.974143114
0.0081375,-1.158171392,-4.974143114
0.00815,-1.14347637,-4.974143114
0.0081625,-1.132455103,-4.974143114
0.008175,-1.117760081,-4.974143114
0.0081875,-1.106738814,-4.974143114
0.0082,-1.095717547,-4.974143114
0.0082125,-1.081022525,-4.974143114
0.008225,-1.066327503,-4.974143114
0.0082375,-1.05163248,-4.970468986
0.00825,-1.040611214,-4.974143114
0.0082625,-1.029589947,-4.966794858
0.008275,-1.014894925,-4.970468986
0.0082875,-1.000199902,-4.970468986
0.0083,-0.98550488,-4.970468986
0.0083125,-0.974483613,-4.966794858
0.008325,-0.959788591,-4.966794858
0.0083375,-0.945093569,-4.96312073
0.00835,-0.926724791,-4.96312073
0.0083625,-0.915703524,-4.959446602
0.008375,-0.901008502,-4.955772473
0.0083875,-0.889987235,-4.952098345
0.0084,-0.875292213,-4.952098345
0.0084125,-0.860597191,-4.944750089
0.008425,-0.845902168,-4.941075961
0.0084375,-0.831207146,-4.937401833
0.00845,-0.816512124,-4.933727705
0.0084625,-0.801817102,-4.930053577
0.008475,-0.787122079,-4.930053577
0.0084875,-0.776100813,-4.919031193
0.0085,-0.757732035,-4.915357065
0.0085125,-0.743037012,-4.911682937
0.008525,-0.732015746,-4.904334681
0.0085375,-0.717320723,-4.900660553
0.00855,-0.698951946,-4.893312297
0.0085625,-0.687930679,-4.885964041
0.008575,-0.673235657,-4.882289913
0.0085875,-0.658540634,-4.874941657
0.0086,-0.643845612,-4.867593401
0.0086125,-0.625476834,-4.863919273
0.008625,-0.610781812,-4.852896888
0.0086375,-0.59608679,-4.845548632
0.00865,-0.581391767,-4.834526248
0.0086625,-0.566696745,-4.83085212
0.008675,-0.552001723,-4.819829736
0.0086875,-0.5373067,-4.808807352
0.0087,-0.522611678,-4.801459096
0.0087125,-0.507916656,-4.790436712
0.008725,-0.489547878,-4.779414328
0.0087375,-0.478526611,-4.772066072
0.00875,-0.460157833,-4.761043688
0.0087625,-0.445462811,-4.746347175
0.008775,-0.427094033,-4.738998919
0.0087875,-0.412399011,-4.724302407
0.0088,-0.397703989,-4.709605895
0.0088125,-0.386682722,-4.698583511
0.008825,-0.368313944,-4.687561127
0.0088375,-0.353618922,-4.672864615
0.00885,-0.338923899,-4.658168103
0.0088625,-0.324228877,-4.643471591
0.008875,-0.309533855,-4.62510095
0.0088875,-0.294838833,-4.610404438
0.0089,-0.276470055,-4.592033798
0.0089125,-0.261775032,-4.56998903
0.008925,-0.243406255,-4.555292518
0.0089375,-0.228711232,-4.533247749
0.00895,-0.21401621,-4.511202981
0.0089625,-0.195647432,-4.489158213
0.008975,-0.184626165,-4.467113445
0.0089875,-0.166257388,-4.441394549
0.009,-0.151562365,-4.415675652
0.0090125,-0.136867343,-4.386282628
0.009025,-0.118498565,-4.353215476
0.0090375,-0.100129787,-4.316474195
0.00905,-0.089108521,-4.279732915
0.0090625,-0.074413498,-4.239317507
0.009075,-0.05604472,-4.187879714
0.0090875,-0.041349698,-4.132767794
0.0091,-0.026654676,-4.062959361
0.0091125,-0.008285898,-3.982128544
0.009125,0.006409124,-3.882927087
0.0091375,0.021104147,-3.769029118
0.00915,0.039472924,-3.633086381
0.0091625,0.054167947,-3.5044919
0.009175,0.068862969,-3.434683467
0.0091875,0.087231747,-3.405290443
0.0092,0.101926769,-3.379571547
0.0092125,0.116621791,-3.357526778
0.009225,0.131316814,-3.33548201
0.0092375,0.146011836,-3.306088986
0.00925,0.160706858,-3.28037009
0.0092625,0.179075636,-3.250977065
0.009275,0.193770658,-3.214235785
0.0092875,0.208465681,-3.166472121
0.0093,0.230508214,-3.015832871
0.0093125,0.245203236,-2.222221216
0.009325,0.259898259,-1.083241525
0.0093375,0.270919525,4.3994987045253
0.00935,0.289288303,4.5518523016374
0.0093625,0.303983326,4.5482248350629995
0.009375,0.322352103,4.5844995017942995
0.0093875,0.33337337,4.580872034232599
0.0094,0.355415904,4.6135192343895
0.0094125,0.36643717,4.6280291006871
0.009425,0.381132193,4.6352840338359
0.0094375,0.395827215,4.6497939001335
0.00945,0.410522237,4.664303766431099
0.0094625,0.425217259,4.6788136327286995
0.009475,0.439912282,4.6715586995799
0.0094875,0.45828106,4.700578433162399
0.0095,0.472976082,4.696950966588
0.0095125,0.49134486,4.718715766034399
0.009525,0.502366126,4.718715766034399
0.0095375,0.517061149,4.7295981657576
0.00955,0.531756171,4.7368530989064
0.0095625,0.550124949,4.758617898352799
0.009575,0.564819971,4.769500298076
0.0095875,0.579514993,4.7731277646504005
0.0096,0.594210016,4.7840101643735995
0.0096125,0.608905038,4.7912650975224
0.009625,0.62360006,4.802147498232899
0.0096375,0.638295083,4.7985200316585
0.00965,0.652990105,4.805774964807299
0.0096625,0.671358883,4.8202848311049
0.009675,0.682380149,4.8202848311049
0.0096875,0.697075172,4.8311672308280995
0.0097,0.71544395,4.838422163976899
0.0097125,0.730138972,4.842049630551299
0.009725,0.744833994,4.8493045637001
0.0097375,0.755855261,4.8529320302745
0.00975,0.770550283,4.8529320302745
0.0097625,0.785245305,4.8565594968489005
0.009775,0.803614083,4.8674418965721
0.0097875,0.81463535,4.8710693631465
0.0098,0.829330372,4.8746968297209
0.0098125,0.844025395,4.8783242962952995
0.009825,0.858720417,4.8819517628697
0.0098375,0.873415439,4.889206696018499
0.00985,0.884436706,4.8855792294441
0.0098625,0.895457973,4.889206696018499
0.009875,0.91382675,4.8964616301546
0.0098875,0.924848017,4.8964616301546
0.0099,0.939543039,4.900089096728999
0.0099125,0.957911817,4.9037165633034
0.009925,0.968933084,4.9037165633034
0.0099375,0.983628106,4.9073440298778
0.00995,0.994649373,4.9073440298778
0.0099625,1.009344395,4.9037165633034
0.009975,1.024039418,4.9073440298778
0.0099875,1.03873444,4.9109714964522
0.01,1.049755707,4.9073440298778
0.0100125,1.064450729,4.9109714964522
0.010025,1.075471996,4.9109714964522
0.0100375,1.090167018,4.9109714964522
0.01005,1.10486204,4.9073440298778
0.0100625,1.119557062,4.9109714964522
0.010075,1.130578329,4.9109714964522
0.0100875,1.141599596,4.9109714964522
0.0101,1.152620863,4.9073440298778
0.0101125,1.167315885,4.9109714964522
0.010125,1.182010907,4.9145989630266005
0.0101375,1.196705929,4.9109714964522
0.01015,1.207727196,4.9145989630266005
0.0101625,1.218748463,4.9145989630266005
0.010175,1.233443485,4.9109714964522
0.0101875,1.244464752,4.9109714964522
0.0102,1.259159774,4.9109714964522
0.0102125,1.270181041,4.9109714964522
0.010225,1.281202308,4.9109714964522
0.0102375,1.29589733,4.9109714964522
0.01025,1.306918597,4.9109714964522
0.0102625,1.317939863,4.9109714964522
0.010275,1.32896113,4.9145989630266005
0.0102875,1.339982397,4.9109714964522
0.0103,1.351003663,4.9109714964522
0.0103125,1.36202493,4.9109714964522
0.010325,1.376719952,4.9145989630266005
0.0103375,1.387741219,4.9109714964522
0.01035,1.398762486,4.9145989630266005
0.0103625,1.409783753,4.9145989630266005
0.010375,1.420805019,4.9109714964522
0.0103875,1.431826286,4.9109714964522
0.0104,1.442847553,4.9109714964522
0.0104125,1.453868819,4.9109714964522
0.010425,1.464890086,4.9109714964522
0.0104375,1.479585108,4.9109714964522
0.01045,1.48693262,4.9109714964522
0.0104625,1.497953886,4.9109714964522
0.010475,1.508975153,4.9073440298778
0.0104875,1.516322664,4.9109714964522
0.0105,1.531017686,4.9109714964522
0.0105125,1.542038953,4.9109714964522
0.010525,1.549386464,4.9109714964522
0.0105375,1.556733975,4.9145989630266005
0.01055,1.571428998,4.9109714964522
0.0105625,1.578776509,4.9109714964522
0.010575,1.589797776,4.9109714964522
0.0105875,1.597145287,4.9109714964522
0.0106,1.608166553,4.9109714964522
0.0106125,1.61918782,4.9109714964522
0.010625,1.626535331,4.9109714964522
0.0106375,1.637556598,4.9109714964522
0.01065,1.648577865,4.9109714964522
0.0106625,1.655925376,4.9109714964522
0.010675,1.663272887,4.9109714964522
0.0106875,1.674294154,4.9109714964522
0.0107,1.681641665,4.9109714964522
0.0107125,1.688989176,4.9109714964522
0.010725,1.700010443,4.9109714964522
0.0107375,1.707357954,4.9109714964522
0.01075,1.718379221,4.9109714964522
0.0107625,1.722052976,4.9109714964522
0.010775,1.729400487,4.9145989630266005
0.0107875,1.74409551,4.9109714964522
0.0108,1.747769265,4.9109714964522
0.0108125,1.755116776,4.9109714964522
0.010825,1.766138043,4.9109714964522
0.0108375,1.773485554,4.9109714964522
0.01085,1.780833065,4.9109714964522
0.0108625,1.784506821,4.9109714964522
0.010875,1.795528088,4.9109714964522
0.0108875,1.799201843,4.9109714964522
0.0109,1.806549354,4.9109714964522
0.0109125,1.813896865,4.9109714964522
0.010925,1.824918132,4.9109714964522
0.0109375,1.828591888,4.9073440298778
0.01095,1.835939399,4.9109714964522
0.0109625,1.839613155,4.9109714964522
0.010975,1.846960666,4.9109714964522
0.0109875,1.854308177,4.9109714964522
0.011,1.861655688,4.9109714964522
0.0110125,1.865329444,4.9109714964522
0.011025,1.869003199,4.9109714964522
0.0110375,1.87635071,4.9109714964522
0.01105,1.883698221,4.9145989630266005
0.0110625,1.887371977,4.9109714964522
0.011075,1.894719488,4.9109714964522
0.0110875,1.898393244,4.9109714964522
0.0111,1.905740755,4.9109714964522
0.0111125,1.90941451,4.9109714964522
0.011125,1.916762022,4.9109714964522
0.0111375,1.916762022,4.9109714964522
